
T0CD0 000:306 SEGGER J-Link V4.98e Log File (0000ms, 0283ms total)
T0CD0 000:306 DLL Compiled: May  5 2015 11:00:52 (0000ms, 0283ms total)
T0CD0 000:306 Logging started @ 2019-08-23 20:01 (0000ms, 0283ms total)
T0CD0 000:306 JLINK_SetWarnOutHandler(...) (0000ms, 0283ms total)
T0CD0 000:306 JLINK_OpenEx(...)
Firmware: J-Link ARM V7 compiled Jun 20 2012 19:45:53
Hardware: V7.00
S/N: 19087980
Feature(s): RDI, FlashDL, FlashBP, JFlash, GDBFull  returns O.K. (0269ms, 0552ms total)
T0CD0 000:575 JLINK_SetErrorOutHandler(...) (0000ms, 0552ms total)
T0CD0 000:575 JLINK_ExecCommand("ProjectFile = "D:\IOT\rtthread-v4.0\rt-thread\bsp\stm32f10x-HAL\JLinkSettings.ini"", ...)  returns 0x00 (0001ms, 0553ms total)
T0CD0 000:586 JLINK_ExecCommand("Device = STM32F103ZE", ...)Device "STM32F103ZE" selected.  returns 0x00 (0005ms, 0558ms total)
T0CD0 000:591 JLINK_ExecCommand("DisableConnectionTimeout", ...)  returns 0x01 (0000ms, 0558ms total)
T0CD0 000:591 JLINK_GetHardwareVersion()  returns 0x11170 (0000ms, 0558ms total)
T0CD0 000:591 JLINK_GetDLLVersion()  returns 49805 (0000ms, 0558ms total)
T0CD0 000:591 JLINK_GetFirmwareString(...) (0000ms, 0558ms total)
T0CD0 000:599 JLINK_GetDLLVersion()  returns 49805 (0000ms, 0558ms total)
T0CD0 000:599 JLINK_GetCompileDateTime() (0000ms, 0558ms total)
T0CD0 000:601 JLINK_GetFirmwareString(...) (0000ms, 0558ms total)
T0CD0 000:603 JLINK_GetHardwareVersion()  returns 0x11170 (0000ms, 0558ms total)
T0CD0 000:612 JLINK_TIF_Select(JLINKARM_TIF_JTAG)  returns 0x00 (0007ms, 0565ms total)
T0CD0 000:619 JLINK_SetSpeed(3000) (0001ms, 0566ms total)
T0CD0 000:620 JLINK_GetIdData(...) >0x2F8 JTAG>Could not measure total IR len. TDO is constant high. >0x30 JTAG>STM32Fxxxx: Cannot attach to CPU. Trying connect under reset. >0x2F8 JTAG>TotalIRLen = 9, IRPrint = 0x0011 >0x30 JTAG> >0x210 JTAG> >0x40 JTAG> >0x40 JTAG> >0x40 JTAG> >0x30 JTAG> >0x40 JTAG> >0x40 JTAG> >0x40 JTAG> >0x40 JTAG> >0x40 JTAG> >0x40 JTAG> >0x40 JTAG> >0x40 JTAG> >0x40 JTAG> >0x40 JTAG> >0x40 JTAG> >0x40 JTAG> >0x40 JTAG> >0x40 JTAG> >0x40 JTAG> >0x40 JTAG> >0x40 JTAG> >0x40 JTAG>
 >0x2F8 JTAG>TotalIRLen = 9, IRPrint = 0x0011 >0x30 JTAG> >0x210 JTAG> >0x70 JTAG> >0x40 JTAG> >0x40 JTAG> >0x40 JTAG> >0x50 JTAG> >0x80 JTAG> >0x40 JTAG> >0x30 JTAG> >0x40 JTAG> >0x40 JTAG> >0x30 JTAG> >0x40 JTAG> >0x50 JTAG>Found Cortex-M3 r1p1, Little endian. >0x1F0 JTAG> >0x1F0 JTAG> >0x1F0 JTAG>FPUnit: 6 code (BP) slots and 2 literal slots >0x1F0 JTAG> >0x1F0 JTAG> >0x1F0 JTAG> >0x1F0 JTAG> >0x1F0 JTAG> >0x1F0 JTAG> >0x1F0 JTAG>CoreSight components:ROMTbl 0 @ E00FF000 >0x2A8 JTAG> >0x2A8 JTAG>
 >0x2A8 JTAG>ROMTbl 0 [0]: FFF0F000, CID: B105E00D, PID: 001BB000 SCS >0x2A8 JTAG> >0x2A8 JTAG>ROMTbl 0 [1]: FFF02000, CID: B105E00D, PID: 001BB002 DWT >0x2A8 JTAG> >0x2A8 JTAG>ROMTbl 0 [2]: FFF03000, CID: B105E00D, PID: 000BB003 FPB >0x2A8 JTAG> >0x2A8 JTAG>ROMTbl 0 [3]: FFF01000, CID: B105E00D, PID: 001BB001 ITM >0x2A8 JTAG> >0x2A8 JTAG> >0x2A8 JTAG>ROMTbl 0 [4]: FFF41000, CID: B105900D, PID: 001BB923 TPIU-Lite >0x2A8 JTAG> >0x2A8 JTAG>ROMTbl 0 [5]: FFF42000, CID: B105900D, PID: 101BB924 ETM-M3
 ScanLen=9 NumDevices=2 aId[0]=0x3BA00477 aIrRead[0]=0 aScanLen[0]=0 aScanRead[0]=0 (0284ms, 0850ms total)
T0CD0 000:904 JLINK_JTAG_GetDeviceID(DeviceIndex = 0)  returns 0x3BA00477 (0000ms, 0850ms total)
T0CD0 000:904 JLINK_JTAG_GetDeviceInfo(DeviceIndex = 0)  returns 0x00 (0000ms, 0850ms total)
T0CD0 000:904 JLINK_JTAG_GetDeviceID(DeviceIndex = 1)  returns 0x6414041 (0000ms, 0850ms total)
T0CD0 000:904 JLINK_JTAG_GetDeviceInfo(DeviceIndex = 1)  returns 0x00 (0000ms, 0850ms total)
T0CD0 000:904 JLINK_GetDLLVersion()  returns 49805 (0000ms, 0850ms total)
T0CD0 000:904 JLINK_CORE_GetFound()  returns 0x30000FF (0000ms, 0850ms total)
T0CD0 000:904 JLINK_GetDebugInfo(0x100) -- Value=0xE00FF003  returns 0x00 (0000ms, 0850ms total)
T0CD0 000:905 JLINK_ReadMem (0xE00FF000, 0x0020 Bytes, ...) -- CPU is running >0x398 JTAG> - Data: 03 F0 F0 FF 03 20 F0 FF 03 30 F0 FF 03 10 F0 FF ...  returns 0x00 (0003ms, 0853ms total)
T0CD0 000:908 JLINK_ReadMem (0xE000EFF0, 0x0010 Bytes, ...) -- CPU is running >0x2A8 JTAG> - Data: 0D 00 00 00 E0 00 00 00 05 00 00 00 B1 00 00 00  returns 0x00 (0002ms, 0855ms total)
T0CD0 000:910 JLINK_ReadMem (0xE000EFD0, 0x0020 Bytes, ...) -- CPU is running >0x398 JTAG> - Data: 04 00 00 00 00 00 00 00 00 00 00 00 00 00 00 00 ...  returns 0x00 (0002ms, 0857ms total)
T0CD0 000:912 JLINK_ReadMem (0xE0001FF0, 0x0010 Bytes, ...) -- CPU is running >0x2A8 JTAG> - Data: 0D 00 00 00 E0 00 00 00 05 00 00 00 B1 00 00 00  returns 0x00 (0002ms, 0859ms total)
T0CD0 000:914 JLINK_ReadMem (0xE0001FD0, 0x0020 Bytes, ...) -- CPU is running >0x398 JTAG> - Data: 04 00 00 00 00 00 00 00 00 00 00 00 00 00 00 00 ...  returns 0x00 (0002ms, 0861ms total)
T0CD0 000:916 JLINK_ReadMem (0xE0002FF0, 0x0010 Bytes, ...) -- CPU is running >0x2A8 JTAG> - Data: 0D 00 00 00 E0 00 00 00 05 00 00 00 B1 00 00 00  returns 0x00 (0002ms, 0863ms total)
T0CD0 000:918 JLINK_ReadMem (0xE0002FD0, 0x0020 Bytes, ...) -- CPU is running >0x398 JTAG> - Data: 04 00 00 00 00 00 00 00 00 00 00 00 00 00 00 00 ...  returns 0x00 (0002ms, 0865ms total)
T0CD0 000:920 JLINK_ReadMem (0xE0000FF0, 0x0010 Bytes, ...) -- CPU is running >0x2A8 JTAG> - Data: 0D 00 00 00 E0 00 00 00 05 00 00 00 B1 00 00 00  returns 0x00 (0002ms, 0867ms total)
T0CD0 000:922 JLINK_ReadMem (0xE0000FD0, 0x0020 Bytes, ...) -- CPU is running >0x398 JTAG> - Data: 04 00 00 00 00 00 00 00 00 00 00 00 00 00 00 00 ...  returns 0x00 (0002ms, 0869ms total)
T0CD0 000:924 JLINK_ReadMem (0xE0040FF0, 0x0010 Bytes, ...) -- CPU is running >0x2A8 JTAG> - Data: 0D 00 00 00 90 00 00 00 05 00 00 00 B1 00 00 00  returns 0x00 (0002ms, 0871ms total)
T0CD0 000:926 JLINK_ReadMem (0xE0040FD0, 0x0020 Bytes, ...) -- CPU is running >0x398 JTAG> - Data: 04 00 00 00 00 00 00 00 00 00 00 00 00 00 00 00 ...  returns 0x00 (0002ms, 0873ms total)
T0CD0 000:928 JLINK_ReadMem (0xE0041FF0, 0x0010 Bytes, ...) -- CPU is running >0x2A8 JTAG> - Data: 0D 00 00 00 90 00 00 00 05 00 00 00 B1 00 00 00  returns 0x00 (0002ms, 0875ms total)
T0CD0 000:930 JLINK_ReadMem (0xE0041FD0, 0x0020 Bytes, ...) -- CPU is running >0x398 JTAG> - Data: 04 00 00 00 00 00 00 00 00 00 00 00 00 00 00 00 ...  returns 0x00 (0002ms, 0877ms total)
T0CD0 000:932 JLINK_ReadMemU32(0xE000ED00, 0x0001 Items, ...) -- CPU is running >0x1F0 JTAG> - Data: 31 C2 1F 41  returns 0x01 (0002ms, 0879ms total)
T0CD0 000:934 JLINK_SetResetType(JLINKARM_RESET_TYPE_NORMAL)  returns JLINKARM_RESET_TYPE_NORMAL (0000ms, 0879ms total)
T0CD0 000:934 JLINK_Reset() -- CPU is running >0x1F0 JTAG> -- CPU is running >0x1F0 JTAG> -- CPU is running >0x230 JTAG> -- CPU is running >0x1F0 JTAG> -- CPU is running >0x1F0 JTAG> -- CPU is running >0x1F0 JTAG> -- CPU is running >0x1F0 JTAG> -- CPU is running >0x1F0 JTAG> >0x198 JTAG> >0x17A8 JTAG> >0x40 JTAG> >0x40 JTAG> >0x30 JTAG> >0x40 JTAG> >0x50 JTAG> >0x40 JTAG> >0x1F0 JTAG> >0x1F0 JTAG> >0x1F0 JTAG> >0x1F0 JTAG> >0x1F0 JTAG> >0x1F0 JTAG> >0x1F0 JTAG> >0x1F0 JTAG> (0063ms, 0942ms total)
T0CD0 000:998 JLINK_Halt()  returns 0x00 (0000ms, 0943ms total)
T0CD0 000:998 JLINK_IsHalted()  returns TRUE (0000ms, 0943ms total)
T0CD0 000:998 JLINK_ReadMemU32(0xE000EDF0, 0x0001 Items, ...) >0x1F0 JTAG> - Data: 03 00 03 00  returns 0x01 (0001ms, 0944ms total)
T0CD0 001:000 JLINK_WriteU32(0xE000EDF0, 0xA05F0003) >0x1F0 JTAG>  returns 0x00 (0001ms, 0945ms total)
T0CD0 001:002 JLINK_WriteU32(0xE000EDFC, 0x01000000) >0x1F0 JTAG>  returns 0x00 (0002ms, 0947ms total)
T0CD0 001:020 JLINK_GetHWStatus(...)  returns 0x00 (0001ms, 0949ms total)
T0CD0 001:028 JLINK_GetNumBPUnits(Type = 0xFFFFFF00)  returns 0x06 (0000ms, 0949ms total)
T0CD0 001:028 JLINK_GetNumBPUnits(Type = 0xF0)  returns 0x2000 (0000ms, 0949ms total)
T0CD0 001:028 JLINK_GetNumWPUnits()  returns 0x04 (0000ms, 0949ms total)
T0CD0 001:034 JLINK_GetSpeed()  returns 0xBB8 (0000ms, 0949ms total)
T0CD0 001:038 JLINK_ReadMemU32(0xE000E004, 0x0001 Items, ...) >0x1F0 JTAG> - Data: 01 00 00 00  returns 0x01 (0003ms, 0952ms total)
T0CD0 001:041 JLINK_ReadMemU32(0xE000E004, 0x0001 Items, ...) >0x1F0 JTAG> - Data: 01 00 00 00  returns 0x01 (0002ms, 0954ms total)
T0CD0 001:043 JLINK_WriteMem(0xE0001000, 0x001C Bytes, ...) - Data: 01 00 00 00 00 00 00 00 00 00 00 00 00 00 00 00 ... >0x310 JTAG>  returns 0x1C (0003ms, 0957ms total)
T0CD0 001:046 JLINK_ReadMem (0xE0001000, 0x001C Bytes, ...) >0x358 JTAG> - Data: 01 00 00 40 00 00 00 00 00 00 00 00 00 00 00 00 ...  returns 0x00 (0002ms, 0959ms total)
T0CD0 001:048 JLINK_Halt()  returns 0x00 (0000ms, 0959ms total)
T0CD0 001:048 JLINK_IsHalted()  returns TRUE (0000ms, 0959ms total)
T0CD0 001:050 JLINK_WriteMem(0x20000000, 0x0164 Bytes, ...) - Data: 00 BE 0A E0 0D 78 2D 06 68 40 08 24 40 00 00 D3 ... >0x1270 JTAG>  returns 0x164 (0006ms, 0965ms total)
T0CD0 001:056 JLINK_WriteReg(R0, 0x08000000)  returns 0x00 (0000ms, 0965ms total)
T0CD0 001:056 JLINK_WriteReg(R1, 0x007A1200)  returns 0x00 (0000ms, 0965ms total)
T0CD0 001:056 JLINK_WriteReg(R2, 0x00000001)  returns 0x00 (0000ms, 0965ms total)
T0CD0 001:056 JLINK_WriteReg(R3, 0x00000000)  returns 0x00 (0000ms, 0965ms total)
T0CD0 001:056 JLINK_WriteReg(R4, 0x00000000)  returns 0x00 (0000ms, 0965ms total)
T0CD0 001:056 JLINK_WriteReg(R5, 0x00000000)  returns 0x00 (0000ms, 0965ms total)
T0CD0 001:056 JLINK_WriteReg(R6, 0x00000000)  returns 0x00 (0000ms, 0965ms total)
T0CD0 001:056 JLINK_WriteReg(R7, 0x00000000)  returns 0x00 (0000ms, 0965ms total)
T0CD0 001:056 JLINK_WriteReg(R8, 0x00000000)  returns 0x00 (0000ms, 0965ms total)
T0CD0 001:056 JLINK_WriteReg(R9, 0x20000160)  returns 0x00 (0000ms, 0965ms total)
T0CD0 001:056 JLINK_WriteReg(R10, 0x00000000)  returns 0x00 (0000ms, 0965ms total)
T0CD0 001:056 JLINK_WriteReg(R11, 0x00000000)  returns 0x00 (0000ms, 0965ms total)
T0CD0 001:056 JLINK_WriteReg(R12, 0x00000000)  returns 0x00 (0000ms, 0965ms total)
T0CD0 001:056 JLINK_WriteReg(R13 (SP), 0x20001000)  returns 0x00 (0000ms, 0965ms total)
T0CD0 001:056 JLINK_WriteReg(R14, 0x20000001)  returns 0x00 (0000ms, 0965ms total)
T0CD0 001:056 JLINK_WriteReg(R15 (PC), 0x20000038)  returns 0x00 (0000ms, 0965ms total)
T0CD0 001:056 JLINK_WriteReg(XPSR, 0x01000000)  returns 0x00 (0000ms, 0965ms total)
T0CD0 001:056 JLINK_WriteReg(MSP, 0x20001000)  returns 0x00 (0000ms, 0965ms total)
T0CD0 001:057 JLINK_WriteReg(PSP, 0x20001000)  returns 0x00 (0000ms, 0966ms total)
T0CD0 001:057 JLINK_WriteReg(CFBP, 0x00000000)  returns 0x00 (0000ms, 0966ms total)
T0CD0 001:057 JLINK_SetBPEx(Addr = 0x20000000, Type = 0xFFFFFFF2) >0x1F0 JTAG>  returns 0x00000001 (0001ms, 0967ms total)
T0CD0 001:058 JLINK_Go() >0x1F0 JTAG> >0x1F0 JTAG> >0x1F0 JTAG> >0x1F0 JTAG> >0x1F0 JTAG> >0x1F0 JTAG> >0x1F0 JTAG> >0x1F0 JTAG> >0x310 JTAG> >0x218 JTAG> >0x218 JTAG> >0x218 JTAG> >0x218 JTAG> >0x218 JTAG> >0x218 JTAG> >0x218 JTAG> >0x218 JTAG> >0x218 JTAG> >0x218 JTAG> >0x218 JTAG> >0x240 JTAG> >0x240 JTAG> (0044ms, 1011ms total)
T0CD0 001:102 JLINK_IsHalted() >0x198 JTAG> >0x17A8 JTAG> >0x1F0 JTAG>  returns TRUE (0010ms, 1021ms total)
T0CD0 001:112 JLINK_ReadReg(R15 (PC))  returns 0x20000000 (0000ms, 1011ms total)
T0CD0 001:112 JLINK_ClrBPEx(BPHandle = 0x00000001)  returns 0x00 (0000ms, 1011ms total)
T0CD0 001:112 JLINK_ReadReg(R0)  returns 0x00000000 (0000ms, 1011ms total)
T0CD0 001:113 JLINK_WriteReg(R0, 0x08000000)  returns 0x00 (0000ms, 1011ms total)
T0CD0 001:113 JLINK_WriteReg(R1, 0x00000800)  returns 0x00 (0000ms, 1011ms total)
T0CD0 001:113 JLINK_WriteReg(R2, 0x000000FF)  returns 0x00 (0000ms, 1011ms total)
T0CD0 001:113 JLINK_WriteReg(R3, 0x00000000)  returns 0x00 (0000ms, 1011ms total)
T0CD0 001:113 JLINK_WriteReg(R4, 0x00000000)  returns 0x00 (0000ms, 1011ms total)
T0CD0 001:113 JLINK_WriteReg(R5, 0x00000000)  returns 0x00 (0000ms, 1011ms total)
T0CD0 001:113 JLINK_WriteReg(R6, 0x00000000)  returns 0x00 (0000ms, 1011ms total)
T0CD0 001:113 JLINK_WriteReg(R7, 0x00000000)  returns 0x00 (0000ms, 1011ms total)
T0CD0 001:113 JLINK_WriteReg(R8, 0x00000000)  returns 0x00 (0000ms, 1011ms total)
T0CD0 001:113 JLINK_WriteReg(R9, 0x20000160)  returns 0x00 (0000ms, 1011ms total)
T0CD0 001:113 JLINK_WriteReg(R10, 0x00000000)  returns 0x00 (0000ms, 1011ms total)
T0CD0 001:113 JLINK_WriteReg(R11, 0x00000000)  returns 0x00 (0000ms, 1011ms total)
T0CD0 001:113 JLINK_WriteReg(R12, 0x00000000)  returns 0x00 (0000ms, 1011ms total)
T0CD0 001:113 JLINK_WriteReg(R13 (SP), 0x20001000)  returns 0x00 (0000ms, 1011ms total)
T0CD0 001:113 JLINK_WriteReg(R14, 0x20000001)  returns 0x00 (0000ms, 1011ms total)
T0CD0 001:113 JLINK_WriteReg(R15 (PC), 0x20000020)  returns 0x00 (0000ms, 1011ms total)
T0CD0 001:113 JLINK_WriteReg(XPSR, 0x01000000)  returns 0x00 (0000ms, 1011ms total)
T0CD0 001:113 JLINK_WriteReg(MSP, 0x20001000)  returns 0x00 (0000ms, 1011ms total)
T0CD0 001:113 JLINK_WriteReg(PSP, 0x20001000)  returns 0x00 (0000ms, 1011ms total)
T0CD0 001:113 JLINK_WriteReg(CFBP, 0x00000000)  returns 0x00 (0000ms, 1011ms total)
T0CD0 001:113 JLINK_SetBPEx(Addr = 0x20000000, Type = 0xFFFFFFF2)  returns 0x00000002 (0000ms, 1011ms total)
T0CD0 001:113 JLINK_Go() >0x1F0 JTAG> >0x310 JTAG> >0x218 JTAG> >0x218 JTAG> >0x218 JTAG> >0x218 JTAG> >0x218 JTAG> >0x240 JTAG> >0x240 JTAG> (0019ms, 1030ms total)
T0CD0 001:132 JLINK_IsHalted() >0x198 JTAG> >0x17A8 JTAG> >0x1F0 JTAG>  returns TRUE (0009ms, 1039ms total)
T0CD0 001:141 JLINK_ReadReg(R15 (PC))  returns 0x20000000 (0000ms, 1030ms total)
T0CD0 001:141 JLINK_ClrBPEx(BPHandle = 0x00000002)  returns 0x00 (0000ms, 1030ms total)
T0CD0 001:141 JLINK_ReadReg(R0)  returns 0x00000001 (0000ms, 1030ms total)
T0CD0 001:141 JLINK_WriteReg(R0, 0x08000000)  returns 0x00 (0001ms, 1031ms total)
T0CD0 001:142 JLINK_WriteReg(R1, 0x00000800)  returns 0x00 (0000ms, 1031ms total)
T0CD0 001:142 JLINK_WriteReg(R2, 0x000000FF)  returns 0x00 (0000ms, 1031ms total)
T0CD0 001:142 JLINK_WriteReg(R3, 0x00000000)  returns 0x00 (0000ms, 1031ms total)
T0CD0 001:142 JLINK_WriteReg(R4, 0x00000000)  returns 0x00 (0000ms, 1031ms total)
T0CD0 001:142 JLINK_WriteReg(R5, 0x00000000)  returns 0x00 (0000ms, 1031ms total)
T0CD0 001:142 JLINK_WriteReg(R6, 0x00000000)  returns 0x00 (0000ms, 1031ms total)
T0CD0 001:142 JLINK_WriteReg(R7, 0x00000000)  returns 0x00 (0000ms, 1031ms total)
T0CD0 001:142 JLINK_WriteReg(R8, 0x00000000)  returns 0x00 (0000ms, 1031ms total)
T0CD0 001:142 JLINK_WriteReg(R9, 0x20000160)  returns 0x00 (0000ms, 1031ms total)
T0CD0 001:142 JLINK_WriteReg(R10, 0x00000000)  returns 0x00 (0000ms, 1031ms total)
T0CD0 001:142 JLINK_WriteReg(R11, 0x00000000)  returns 0x00 (0000ms, 1031ms total)
T0CD0 001:142 JLINK_WriteReg(R12, 0x00000000)  returns 0x00 (0000ms, 1031ms total)
T0CD0 001:142 JLINK_WriteReg(R13 (SP), 0x20001000)  returns 0x00 (0000ms, 1031ms total)
T0CD0 001:142 JLINK_WriteReg(R14, 0x20000001)  returns 0x00 (0000ms, 1031ms total)
T0CD0 001:142 JLINK_WriteReg(R15 (PC), 0x200000B6)  returns 0x00 (0000ms, 1031ms total)
T0CD0 001:142 JLINK_WriteReg(XPSR, 0x01000000)  returns 0x00 (0000ms, 1031ms total)
T0CD0 001:142 JLINK_WriteReg(MSP, 0x20001000)  returns 0x00 (0000ms, 1031ms total)
T0CD0 001:142 JLINK_WriteReg(PSP, 0x20001000)  returns 0x00 (0000ms, 1031ms total)
T0CD0 001:142 JLINK_WriteReg(CFBP, 0x00000000)  returns 0x00 (0000ms, 1031ms total)
T0CD0 001:142 JLINK_SetBPEx(Addr = 0x20000000, Type = 0xFFFFFFF2)  returns 0x00000003 (0000ms, 1031ms total)
T0CD0 001:142 JLINK_Go() >0x1F0 JTAG> >0x310 JTAG> >0x218 JTAG> >0x218 JTAG> >0x218 JTAG> >0x240 JTAG> >0x240 JTAG> (0014ms, 1045ms total)
T0CD0 001:156 JLINK_IsHalted() >0x198 JTAG>  returns FALSE (0002ms, 1047ms total)
T0CD0 001:206 JLINK_IsHalted() >0x198 JTAG> >0x17A8 JTAG> >0x1F0 JTAG>  returns TRUE (0010ms, 1055ms total)
T0CD0 001:216 JLINK_ReadReg(R15 (PC))  returns 0x20000000 (0000ms, 1045ms total)
T0CD0 001:216 JLINK_ClrBPEx(BPHandle = 0x00000003)  returns 0x00 (0000ms, 1045ms total)
T0CD0 001:216 JLINK_ReadReg(R0)  returns 0x00000000 (0000ms, 1045ms total)
T0CD0 001:217 JLINK_WriteReg(R0, 0x08000800)  returns 0x00 (0000ms, 1045ms total)
T0CD0 001:217 JLINK_WriteReg(R1, 0x00000800)  returns 0x00 (0000ms, 1045ms total)
T0CD0 001:217 JLINK_WriteReg(R2, 0x000000FF)  returns 0x00 (0000ms, 1045ms total)
T0CD0 001:217 JLINK_WriteReg(R3, 0x00000000)  returns 0x00 (0000ms, 1045ms total)
T0CD0 001:217 JLINK_WriteReg(R4, 0x00000000)  returns 0x00 (0000ms, 1045ms total)
T0CD0 001:217 JLINK_WriteReg(R5, 0x00000000)  returns 0x00 (0000ms, 1045ms total)
T0CD0 001:217 JLINK_WriteReg(R6, 0x00000000)  returns 0x00 (0000ms, 1045ms total)
T0CD0 001:217 JLINK_WriteReg(R7, 0x00000000)  returns 0x00 (0000ms, 1045ms total)
T0CD0 001:217 JLINK_WriteReg(R8, 0x00000000)  returns 0x00 (0000ms, 1045ms total)
T0CD0 001:217 JLINK_WriteReg(R9, 0x20000160)  returns 0x00 (0000ms, 1045ms total)
T0CD0 001:217 JLINK_WriteReg(R10, 0x00000000)  returns 0x00 (0000ms, 1045ms total)
T0CD0 001:217 JLINK_WriteReg(R11, 0x00000000)  returns 0x00 (0000ms, 1045ms total)
T0CD0 001:217 JLINK_WriteReg(R12, 0x00000000)  returns 0x00 (0000ms, 1045ms total)
T0CD0 001:217 JLINK_WriteReg(R13 (SP), 0x20001000)  returns 0x00 (0000ms, 1045ms total)
T0CD0 001:217 JLINK_WriteReg(R14, 0x20000001)  returns 0x00 (0000ms, 1045ms total)
T0CD0 001:217 JLINK_WriteReg(R15 (PC), 0x20000020)  returns 0x00 (0000ms, 1045ms total)
T0CD0 001:217 JLINK_WriteReg(XPSR, 0x01000000)  returns 0x00 (0000ms, 1045ms total)
T0CD0 001:217 JLINK_WriteReg(MSP, 0x20001000)  returns 0x00 (0000ms, 1045ms total)
T0CD0 001:217 JLINK_WriteReg(PSP, 0x20001000)  returns 0x00 (0000ms, 1045ms total)
T0CD0 001:217 JLINK_WriteReg(CFBP, 0x00000000)  returns 0x00 (0000ms, 1045ms total)
T0CD0 001:217 JLINK_SetBPEx(Addr = 0x20000000, Type = 0xFFFFFFF2)  returns 0x00000004 (0000ms, 1045ms total)
T0CD0 001:217 JLINK_Go() >0x1F0 JTAG> >0x310 JTAG> >0x218 JTAG> >0x218 JTAG> >0x218 JTAG> >0x218 JTAG> >0x240 JTAG> >0x240 JTAG> (0016ms, 1061ms total)
T0CD0 001:233 JLINK_IsHalted() >0x198 JTAG> >0x17A8 JTAG> >0x1F0 JTAG>  returns TRUE (0010ms, 1071ms total)
T0CD0 001:243 JLINK_ReadReg(R15 (PC))  returns 0x20000000 (0000ms, 1061ms total)
T0CD0 001:243 JLINK_ClrBPEx(BPHandle = 0x00000004)  returns 0x00 (0000ms, 1061ms total)
T0CD0 001:243 JLINK_ReadReg(R0)  returns 0x00000001 (0000ms, 1061ms total)
T0CD0 001:243 JLINK_WriteReg(R0, 0x08000800)  returns 0x00 (0000ms, 1061ms total)
T0CD0 001:243 JLINK_WriteReg(R1, 0x00000800)  returns 0x00 (0000ms, 1061ms total)
T0CD0 001:243 JLINK_WriteReg(R2, 0x000000FF)  returns 0x00 (0000ms, 1061ms total)
T0CD0 001:243 JLINK_WriteReg(R3, 0x00000000)  returns 0x00 (0000ms, 1061ms total)
T0CD0 001:243 JLINK_WriteReg(R4, 0x00000000)  returns 0x00 (0000ms, 1061ms total)
T0CD0 001:243 JLINK_WriteReg(R5, 0x00000000)  returns 0x00 (0000ms, 1061ms total)
T0CD0 001:243 JLINK_WriteReg(R6, 0x00000000)  returns 0x00 (0000ms, 1061ms total)
T0CD0 001:243 JLINK_WriteReg(R7, 0x00000000)  returns 0x00 (0000ms, 1061ms total)
T0CD0 001:243 JLINK_WriteReg(R8, 0x00000000)  returns 0x00 (0000ms, 1061ms total)
T0CD0 001:243 JLINK_WriteReg(R9, 0x20000160)  returns 0x00 (0000ms, 1061ms total)
T0CD0 001:243 JLINK_WriteReg(R10, 0x00000000)  returns 0x00 (0000ms, 1061ms total)
T0CD0 001:243 JLINK_WriteReg(R11, 0x00000000)  returns 0x00 (0000ms, 1061ms total)
T0CD0 001:243 JLINK_WriteReg(R12, 0x00000000)  returns 0x00 (0000ms, 1061ms total)
T0CD0 001:243 JLINK_WriteReg(R13 (SP), 0x20001000)  returns 0x00 (0000ms, 1061ms total)
T0CD0 001:243 JLINK_WriteReg(R14, 0x20000001)  returns 0x00 (0000ms, 1061ms total)
T0CD0 001:243 JLINK_WriteReg(R15 (PC), 0x200000B6)  returns 0x00 (0000ms, 1061ms total)
T0CD0 001:243 JLINK_WriteReg(XPSR, 0x01000000)  returns 0x00 (0000ms, 1061ms total)
T0CD0 001:243 JLINK_WriteReg(MSP, 0x20001000)  returns 0x00 (0000ms, 1061ms total)
T0CD0 001:243 JLINK_WriteReg(PSP, 0x20001000)  returns 0x00 (0000ms, 1061ms total)
T0CD0 001:243 JLINK_WriteReg(CFBP, 0x00000000)  returns 0x00 (0000ms, 1061ms total)
T0CD0 001:243 JLINK_SetBPEx(Addr = 0x20000000, Type = 0xFFFFFFF2)  returns 0x00000005 (0000ms, 1061ms total)
T0CD0 001:243 JLINK_Go() >0x1F0 JTAG> >0x310 JTAG> >0x218 JTAG> >0x218 JTAG> >0x218 JTAG> >0x240 JTAG> >0x240 JTAG> (0014ms, 1075ms total)
T0CD0 001:257 JLINK_IsHalted() >0x198 JTAG>  returns FALSE (0002ms, 1077ms total)
T0CD0 001:262 JLINK_IsHalted() >0x198 JTAG>  returns FALSE (0002ms, 1077ms total)
T0CD0 001:265 JLINK_IsHalted() >0x198 JTAG>  returns FALSE (0002ms, 1077ms total)
T0CD0 001:268 JLINK_IsHalted() >0x198 JTAG>  returns FALSE (0002ms, 1077ms total)
T0CD0 001:271 JLINK_IsHalted() >0x198 JTAG>  returns FALSE (0002ms, 1077ms total)
T0CD0 001:274 JLINK_IsHalted() >0x198 JTAG>  returns FALSE (0002ms, 1077ms total)
T0CD0 001:277 JLINK_IsHalted() >0x198 JTAG>  returns FALSE (0002ms, 1077ms total)
T0CD0 001:280 JLINK_IsHalted() >0x198 JTAG> >0x17A8 JTAG> >0x1F0 JTAG>  returns TRUE (0009ms, 1084ms total)
T0CD0 001:289 JLINK_ReadReg(R15 (PC))  returns 0x20000000 (0000ms, 1075ms total)
T0CD0 001:289 JLINK_ClrBPEx(BPHandle = 0x00000005)  returns 0x00 (0001ms, 1076ms total)
T0CD0 001:290 JLINK_ReadReg(R0)  returns 0x00000000 (0000ms, 1076ms total)
T0CD0 001:291 JLINK_WriteReg(R0, 0x08001000)  returns 0x00 (0000ms, 1076ms total)
T0CD0 001:291 JLINK_WriteReg(R1, 0x00000800)  returns 0x00 (0000ms, 1076ms total)
T0CD0 001:291 JLINK_WriteReg(R2, 0x000000FF)  returns 0x00 (0000ms, 1076ms total)
T0CD0 001:291 JLINK_WriteReg(R3, 0x00000000)  returns 0x00 (0000ms, 1076ms total)
T0CD0 001:291 JLINK_WriteReg(R4, 0x00000000)  returns 0x00 (0000ms, 1076ms total)
T0CD0 001:291 JLINK_WriteReg(R5, 0x00000000)  returns 0x00 (0000ms, 1076ms total)
T0CD0 001:291 JLINK_WriteReg(R6, 0x00000000)  returns 0x00 (0000ms, 1076ms total)
T0CD0 001:291 JLINK_WriteReg(R7, 0x00000000)  returns 0x00 (0000ms, 1076ms total)
T0CD0 001:291 JLINK_WriteReg(R8, 0x00000000)  returns 0x00 (0000ms, 1076ms total)
T0CD0 001:291 JLINK_WriteReg(R9, 0x20000160)  returns 0x00 (0000ms, 1076ms total)
T0CD0 001:291 JLINK_WriteReg(R10, 0x00000000)  returns 0x00 (0000ms, 1076ms total)
T0CD0 001:291 JLINK_WriteReg(R11, 0x00000000)  returns 0x00 (0000ms, 1076ms total)
T0CD0 001:291 JLINK_WriteReg(R12, 0x00000000)  returns 0x00 (0000ms, 1076ms total)
T0CD0 001:291 JLINK_WriteReg(R13 (SP), 0x20001000)  returns 0x00 (0000ms, 1076ms total)
T0CD0 001:291 JLINK_WriteReg(R14, 0x20000001)  returns 0x00 (0000ms, 1076ms total)
T0CD0 001:291 JLINK_WriteReg(R15 (PC), 0x20000020)  returns 0x00 (0000ms, 1076ms total)
T0CD0 001:291 JLINK_WriteReg(XPSR, 0x01000000)  returns 0x00 (0000ms, 1076ms total)
T0CD0 001:291 JLINK_WriteReg(MSP, 0x20001000)  returns 0x00 (0000ms, 1076ms total)
T0CD0 001:291 JLINK_WriteReg(PSP, 0x20001000)  returns 0x00 (0000ms, 1076ms total)
T0CD0 001:291 JLINK_WriteReg(CFBP, 0x00000000)  returns 0x00 (0000ms, 1076ms total)
T0CD0 001:291 JLINK_SetBPEx(Addr = 0x20000000, Type = 0xFFFFFFF2)  returns 0x00000006 (0000ms, 1076ms total)
T0CD0 001:291 JLINK_Go() >0x1F0 JTAG> >0x310 JTAG> >0x218 JTAG> >0x218 JTAG> >0x218 JTAG> >0x218 JTAG> >0x240 JTAG> >0x240 JTAG> (0018ms, 1094ms total)
T0CD0 001:309 JLINK_IsHalted() >0x198 JTAG> >0x17A8 JTAG> >0x1F0 JTAG>  returns TRUE (0009ms, 1103ms total)
T0CD0 001:318 JLINK_ReadReg(R15 (PC))  returns 0x20000000 (0000ms, 1094ms total)
T0CD0 001:318 JLINK_ClrBPEx(BPHandle = 0x00000006)  returns 0x00 (0000ms, 1094ms total)
T0CD0 001:318 JLINK_ReadReg(R0)  returns 0x00000001 (0000ms, 1094ms total)
T0CD0 001:318 JLINK_WriteReg(R0, 0x08001000)  returns 0x00 (0000ms, 1094ms total)
T0CD0 001:318 JLINK_WriteReg(R1, 0x00000800)  returns 0x00 (0000ms, 1094ms total)
T0CD0 001:318 JLINK_WriteReg(R2, 0x000000FF)  returns 0x00 (0000ms, 1094ms total)
T0CD0 001:318 JLINK_WriteReg(R3, 0x00000000)  returns 0x00 (0000ms, 1094ms total)
T0CD0 001:319 JLINK_WriteReg(R4, 0x00000000)  returns 0x00 (0000ms, 1094ms total)
T0CD0 001:319 JLINK_WriteReg(R5, 0x00000000)  returns 0x00 (0000ms, 1094ms total)
T0CD0 001:319 JLINK_WriteReg(R6, 0x00000000)  returns 0x00 (0000ms, 1094ms total)
T0CD0 001:319 JLINK_WriteReg(R7, 0x00000000)  returns 0x00 (0000ms, 1094ms total)
T0CD0 001:319 JLINK_WriteReg(R8, 0x00000000)  returns 0x00 (0000ms, 1094ms total)
T0CD0 001:319 JLINK_WriteReg(R9, 0x20000160)  returns 0x00 (0000ms, 1094ms total)
T0CD0 001:319 JLINK_WriteReg(R10, 0x00000000)  returns 0x00 (0000ms, 1094ms total)
T0CD0 001:319 JLINK_WriteReg(R11, 0x00000000)  returns 0x00 (0000ms, 1094ms total)
T0CD0 001:319 JLINK_WriteReg(R12, 0x00000000)  returns 0x00 (0000ms, 1094ms total)
T0CD0 001:319 JLINK_WriteReg(R13 (SP), 0x20001000)  returns 0x00 (0000ms, 1094ms total)
T0CD0 001:319 JLINK_WriteReg(R14, 0x20000001)  returns 0x00 (0000ms, 1094ms total)
T0CD0 001:319 JLINK_WriteReg(R15 (PC), 0x200000B6)  returns 0x00 (0000ms, 1094ms total)
T0CD0 001:319 JLINK_WriteReg(XPSR, 0x01000000)  returns 0x00 (0000ms, 1094ms total)
T0CD0 001:319 JLINK_WriteReg(MSP, 0x20001000)  returns 0x00 (0000ms, 1094ms total)
T0CD0 001:319 JLINK_WriteReg(PSP, 0x20001000)  returns 0x00 (0000ms, 1094ms total)
T0CD0 001:319 JLINK_WriteReg(CFBP, 0x00000000)  returns 0x00 (0000ms, 1094ms total)
T0CD0 001:319 JLINK_SetBPEx(Addr = 0x20000000, Type = 0xFFFFFFF2)  returns 0x00000007 (0000ms, 1094ms total)
T0CD0 001:319 JLINK_Go() >0x1F0 JTAG> >0x310 JTAG> >0x218 JTAG> >0x218 JTAG> >0x218 JTAG> >0x240 JTAG> >0x240 JTAG> (0013ms, 1107ms total)
T0CD0 001:332 JLINK_IsHalted() >0x198 JTAG>  returns FALSE (0002ms, 1109ms total)
T0CD0 001:335 JLINK_IsHalted() >0x198 JTAG>  returns FALSE (0001ms, 1108ms total)
T0CD0 001:337 JLINK_IsHalted() >0x198 JTAG>  returns FALSE (0001ms, 1108ms total)
T0CD0 001:339 JLINK_IsHalted() >0x198 JTAG>  returns FALSE (0001ms, 1108ms total)
T0CD0 001:341 JLINK_IsHalted() >0x198 JTAG>  returns FALSE (0001ms, 1108ms total)
T0CD0 001:343 JLINK_IsHalted() >0x198 JTAG>  returns FALSE (0001ms, 1108ms total)
T0CD0 001:345 JLINK_IsHalted() >0x198 JTAG>  returns FALSE (0001ms, 1108ms total)
T0CD0 001:347 JLINK_IsHalted() >0x198 JTAG>  returns FALSE (0001ms, 1108ms total)
T0CD0 001:349 JLINK_IsHalted() >0x198 JTAG>  returns FALSE (0001ms, 1108ms total)
T0CD0 001:351 JLINK_IsHalted() >0x198 JTAG>  returns FALSE (0001ms, 1108ms total)
T0CD0 001:356 JLINK_IsHalted() >0x198 JTAG> >0x17A8 JTAG> >0x1F0 JTAG>  returns TRUE (0009ms, 1116ms total)
T0CD0 001:365 JLINK_ReadReg(R15 (PC))  returns 0x20000000 (0000ms, 1107ms total)
T0CD0 001:365 JLINK_ClrBPEx(BPHandle = 0x00000007)  returns 0x00 (0000ms, 1107ms total)
T0CD0 001:365 JLINK_ReadReg(R0)  returns 0x00000000 (0000ms, 1107ms total)
T0CD0 001:365 JLINK_WriteReg(R0, 0x08001800)  returns 0x00 (0000ms, 1107ms total)
T0CD0 001:365 JLINK_WriteReg(R1, 0x00000800)  returns 0x00 (0000ms, 1107ms total)
T0CD0 001:365 JLINK_WriteReg(R2, 0x000000FF)  returns 0x00 (0000ms, 1107ms total)
T0CD0 001:365 JLINK_WriteReg(R3, 0x00000000)  returns 0x00 (0000ms, 1107ms total)
T0CD0 001:365 JLINK_WriteReg(R4, 0x00000000)  returns 0x00 (0000ms, 1107ms total)
T0CD0 001:365 JLINK_WriteReg(R5, 0x00000000)  returns 0x00 (0000ms, 1107ms total)
T0CD0 001:365 JLINK_WriteReg(R6, 0x00000000)  returns 0x00 (0000ms, 1107ms total)
T0CD0 001:365 JLINK_WriteReg(R7, 0x00000000)  returns 0x00 (0001ms, 1108ms total)
T0CD0 001:366 JLINK_WriteReg(R8, 0x00000000)  returns 0x00 (0000ms, 1108ms total)
T0CD0 001:366 JLINK_WriteReg(R9, 0x20000160)  returns 0x00 (0000ms, 1108ms total)
T0CD0 001:366 JLINK_WriteReg(R10, 0x00000000)  returns 0x00 (0000ms, 1108ms total)
T0CD0 001:366 JLINK_WriteReg(R11, 0x00000000)  returns 0x00 (0000ms, 1108ms total)
T0CD0 001:366 JLINK_WriteReg(R12, 0x00000000)  returns 0x00 (0000ms, 1108ms total)
T0CD0 001:366 JLINK_WriteReg(R13 (SP), 0x20001000)  returns 0x00 (0000ms, 1108ms total)
T0CD0 001:366 JLINK_WriteReg(R14, 0x20000001)  returns 0x00 (0000ms, 1108ms total)
T0CD0 001:366 JLINK_WriteReg(R15 (PC), 0x20000020)  returns 0x00 (0000ms, 1108ms total)
T0CD0 001:366 JLINK_WriteReg(XPSR, 0x01000000)  returns 0x00 (0000ms, 1108ms total)
T0CD0 001:366 JLINK_WriteReg(MSP, 0x20001000)  returns 0x00 (0000ms, 1108ms total)
T0CD0 001:366 JLINK_WriteReg(PSP, 0x20001000)  returns 0x00 (0000ms, 1108ms total)
T0CD0 001:366 JLINK_WriteReg(CFBP, 0x00000000)  returns 0x00 (0000ms, 1108ms total)
T0CD0 001:366 JLINK_SetBPEx(Addr = 0x20000000, Type = 0xFFFFFFF2)  returns 0x00000008 (0000ms, 1108ms total)
T0CD0 001:366 JLINK_Go() >0x1F0 JTAG> >0x310 JTAG> >0x218 JTAG> >0x218 JTAG> >0x218 JTAG> >0x218 JTAG> >0x240 JTAG> >0x240 JTAG> (0015ms, 1123ms total)
T0CD0 001:381 JLINK_IsHalted() >0x198 JTAG> >0x17A8 JTAG> >0x1F0 JTAG>  returns TRUE (0009ms, 1132ms total)
T0CD0 001:390 JLINK_ReadReg(R15 (PC))  returns 0x20000000 (0000ms, 1123ms total)
T0CD0 001:390 JLINK_ClrBPEx(BPHandle = 0x00000008)  returns 0x00 (0000ms, 1123ms total)
T0CD0 001:390 JLINK_ReadReg(R0)  returns 0x00000001 (0000ms, 1123ms total)
T0CD0 001:390 JLINK_WriteReg(R0, 0x08001800)  returns 0x00 (0000ms, 1123ms total)
T0CD0 001:390 JLINK_WriteReg(R1, 0x00000800)  returns 0x00 (0000ms, 1123ms total)
T0CD0 001:390 JLINK_WriteReg(R2, 0x000000FF)  returns 0x00 (0000ms, 1123ms total)
T0CD0 001:390 JLINK_WriteReg(R3, 0x00000000)  returns 0x00 (0000ms, 1123ms total)
T0CD0 001:390 JLINK_WriteReg(R4, 0x00000000)  returns 0x00 (0000ms, 1123ms total)
T0CD0 001:390 JLINK_WriteReg(R5, 0x00000000)  returns 0x00 (0000ms, 1123ms total)
T0CD0 001:390 JLINK_WriteReg(R6, 0x00000000)  returns 0x00 (0000ms, 1123ms total)
T0CD0 001:390 JLINK_WriteReg(R7, 0x00000000)  returns 0x00 (0000ms, 1123ms total)
T0CD0 001:390 JLINK_WriteReg(R8, 0x00000000)  returns 0x00 (0000ms, 1123ms total)
T0CD0 001:390 JLINK_WriteReg(R9, 0x20000160)  returns 0x00 (0000ms, 1123ms total)
T0CD0 001:390 JLINK_WriteReg(R10, 0x00000000)  returns 0x00 (0000ms, 1123ms total)
T0CD0 001:390 JLINK_WriteReg(R11, 0x00000000)  returns 0x00 (0000ms, 1123ms total)
T0CD0 001:390 JLINK_WriteReg(R12, 0x00000000)  returns 0x00 (0000ms, 1123ms total)
T0CD0 001:390 JLINK_WriteReg(R13 (SP), 0x20001000)  returns 0x00 (0000ms, 1123ms total)
T0CD0 001:390 JLINK_WriteReg(R14, 0x20000001)  returns 0x00 (0000ms, 1123ms total)
T0CD0 001:390 JLINK_WriteReg(R15 (PC), 0x200000B6)  returns 0x00 (0000ms, 1123ms total)
T0CD0 001:390 JLINK_WriteReg(XPSR, 0x01000000)  returns 0x00 (0000ms, 1123ms total)
T0CD0 001:390 JLINK_WriteReg(MSP, 0x20001000)  returns 0x00 (0000ms, 1123ms total)
T0CD0 001:390 JLINK_WriteReg(PSP, 0x20001000)  returns 0x00 (0000ms, 1123ms total)
T0CD0 001:390 JLINK_WriteReg(CFBP, 0x00000000)  returns 0x00 (0000ms, 1123ms total)
T0CD0 001:390 JLINK_SetBPEx(Addr = 0x20000000, Type = 0xFFFFFFF2)  returns 0x00000009 (0000ms, 1123ms total)
T0CD0 001:390 JLINK_Go() >0x1F0 JTAG> >0x310 JTAG> >0x218 JTAG> >0x218 JTAG> >0x218 JTAG> >0x240 JTAG> >0x240 JTAG> (0014ms, 1137ms total)
T0CD0 001:404 JLINK_IsHalted() >0x198 JTAG>  returns FALSE (0002ms, 1139ms total)
T0CD0 001:407 JLINK_IsHalted() >0x198 JTAG>  returns FALSE (0002ms, 1139ms total)
T0CD0 001:410 JLINK_IsHalted() >0x198 JTAG>  returns FALSE (0002ms, 1139ms total)
T0CD0 001:413 JLINK_IsHalted() >0x198 JTAG>  returns FALSE (0002ms, 1139ms total)
T0CD0 001:417 JLINK_IsHalted() >0x198 JTAG>  returns FALSE (0002ms, 1139ms total)
T0CD0 001:420 JLINK_IsHalted() >0x198 JTAG>  returns FALSE (0002ms, 1139ms total)
T0CD0 001:423 JLINK_IsHalted() >0x198 JTAG>  returns FALSE (0002ms, 1139ms total)
T0CD0 001:426 JLINK_IsHalted() >0x198 JTAG> >0x17A8 JTAG> >0x1F0 JTAG>  returns TRUE (0009ms, 1146ms total)
T0CD0 001:435 JLINK_ReadReg(R15 (PC))  returns 0x20000000 (0000ms, 1137ms total)
T0CD0 001:435 JLINK_ClrBPEx(BPHandle = 0x00000009)  returns 0x00 (0000ms, 1137ms total)
T0CD0 001:435 JLINK_ReadReg(R0)  returns 0x00000000 (0000ms, 1137ms total)
T0CD0 001:435 JLINK_WriteReg(R0, 0x08002000)  returns 0x00 (0000ms, 1137ms total)
T0CD0 001:435 JLINK_WriteReg(R1, 0x00000800)  returns 0x00 (0000ms, 1137ms total)
T0CD0 001:435 JLINK_WriteReg(R2, 0x000000FF)  returns 0x00 (0000ms, 1137ms total)
T0CD0 001:435 JLINK_WriteReg(R3, 0x00000000)  returns 0x00 (0000ms, 1137ms total)
T0CD0 001:435 JLINK_WriteReg(R4, 0x00000000)  returns 0x00 (0000ms, 1137ms total)
T0CD0 001:435 JLINK_WriteReg(R5, 0x00000000)  returns 0x00 (0000ms, 1137ms total)
T0CD0 001:435 JLINK_WriteReg(R6, 0x00000000)  returns 0x00 (0000ms, 1137ms total)
T0CD0 001:435 JLINK_WriteReg(R7, 0x00000000)  returns 0x00 (0001ms, 1138ms total)
T0CD0 001:436 JLINK_WriteReg(R8, 0x00000000)  returns 0x00 (0000ms, 1138ms total)
T0CD0 001:436 JLINK_WriteReg(R9, 0x20000160)  returns 0x00 (0000ms, 1138ms total)
T0CD0 001:436 JLINK_WriteReg(R10, 0x00000000)  returns 0x00 (0000ms, 1138ms total)
T0CD0 001:436 JLINK_WriteReg(R11, 0x00000000)  returns 0x00 (0000ms, 1138ms total)
T0CD0 001:436 JLINK_WriteReg(R12, 0x00000000)  returns 0x00 (0000ms, 1138ms total)
T0CD0 001:436 JLINK_WriteReg(R13 (SP), 0x20001000)  returns 0x00 (0000ms, 1138ms total)
T0CD0 001:436 JLINK_WriteReg(R14, 0x20000001)  returns 0x00 (0000ms, 1138ms total)
T0CD0 001:436 JLINK_WriteReg(R15 (PC), 0x20000020)  returns 0x00 (0000ms, 1138ms total)
T0CD0 001:436 JLINK_WriteReg(XPSR, 0x01000000)  returns 0x00 (0000ms, 1138ms total)
T0CD0 001:436 JLINK_WriteReg(MSP, 0x20001000)  returns 0x00 (0000ms, 1138ms total)
T0CD0 001:436 JLINK_WriteReg(PSP, 0x20001000)  returns 0x00 (0000ms, 1138ms total)
T0CD0 001:436 JLINK_WriteReg(CFBP, 0x00000000)  returns 0x00 (0000ms, 1138ms total)
T0CD0 001:436 JLINK_SetBPEx(Addr = 0x20000000, Type = 0xFFFFFFF2)  returns 0x0000000A (0000ms, 1138ms total)
T0CD0 001:436 JLINK_Go() >0x1F0 JTAG> >0x310 JTAG> >0x218 JTAG> >0x218 JTAG> >0x218 JTAG> >0x218 JTAG> >0x240 JTAG> >0x240 JTAG> (0016ms, 1154ms total)
T0CD0 001:452 JLINK_IsHalted() >0x198 JTAG> >0x17A8 JTAG> >0x1F0 JTAG>  returns TRUE (0010ms, 1164ms total)
T0CD0 001:462 JLINK_ReadReg(R15 (PC))  returns 0x20000000 (0000ms, 1154ms total)
T0CD0 001:462 JLINK_ClrBPEx(BPHandle = 0x0000000A)  returns 0x00 (0000ms, 1154ms total)
T0CD0 001:462 JLINK_ReadReg(R0)  returns 0x00000001 (0000ms, 1154ms total)
T0CD0 001:462 JLINK_WriteReg(R0, 0x08002000)  returns 0x00 (0000ms, 1154ms total)
T0CD0 001:462 JLINK_WriteReg(R1, 0x00000800)  returns 0x00 (0000ms, 1154ms total)
T0CD0 001:462 JLINK_WriteReg(R2, 0x000000FF)  returns 0x00 (0000ms, 1154ms total)
T0CD0 001:462 JLINK_WriteReg(R3, 0x00000000)  returns 0x00 (0000ms, 1154ms total)
T0CD0 001:462 JLINK_WriteReg(R4, 0x00000000)  returns 0x00 (0000ms, 1154ms total)
T0CD0 001:462 JLINK_WriteReg(R5, 0x00000000)  returns 0x00 (0000ms, 1154ms total)
T0CD0 001:462 JLINK_WriteReg(R6, 0x00000000)  returns 0x00 (0000ms, 1154ms total)
T0CD0 001:462 JLINK_WriteReg(R7, 0x00000000)  returns 0x00 (0000ms, 1154ms total)
T0CD0 001:462 JLINK_WriteReg(R8, 0x00000000)  returns 0x00 (0000ms, 1154ms total)
T0CD0 001:462 JLINK_WriteReg(R9, 0x20000160)  returns 0x00 (0000ms, 1154ms total)
T0CD0 001:462 JLINK_WriteReg(R10, 0x00000000)  returns 0x00 (0000ms, 1154ms total)
T0CD0 001:462 JLINK_WriteReg(R11, 0x00000000)  returns 0x00 (0000ms, 1154ms total)
T0CD0 001:462 JLINK_WriteReg(R12, 0x00000000)  returns 0x00 (0000ms, 1154ms total)
T0CD0 001:462 JLINK_WriteReg(R13 (SP), 0x20001000)  returns 0x00 (0000ms, 1154ms total)
T0CD0 001:462 JLINK_WriteReg(R14, 0x20000001)  returns 0x00 (0000ms, 1154ms total)
T0CD0 001:462 JLINK_WriteReg(R15 (PC), 0x200000B6)  returns 0x00 (0000ms, 1154ms total)
T0CD0 001:462 JLINK_WriteReg(XPSR, 0x01000000)  returns 0x00 (0000ms, 1154ms total)
T0CD0 001:462 JLINK_WriteReg(MSP, 0x20001000)  returns 0x00 (0000ms, 1154ms total)
T0CD0 001:462 JLINK_WriteReg(PSP, 0x20001000)  returns 0x00 (0000ms, 1154ms total)
T0CD0 001:462 JLINK_WriteReg(CFBP, 0x00000000)  returns 0x00 (0000ms, 1154ms total)
T0CD0 001:462 JLINK_SetBPEx(Addr = 0x20000000, Type = 0xFFFFFFF2)  returns 0x0000000B (0000ms, 1154ms total)
T0CD0 001:462 JLINK_Go() >0x1F0 JTAG> >0x310 JTAG> >0x218 JTAG> >0x218 JTAG> >0x240 JTAG> >0x240 JTAG> (0013ms, 1167ms total)
T0CD0 001:475 JLINK_IsHalted() >0x198 JTAG>  returns FALSE (0002ms, 1169ms total)
T0CD0 001:493 JLINK_IsHalted() >0x198 JTAG>  returns FALSE (0002ms, 1169ms total)
T0CD0 001:496 JLINK_IsHalted() >0x198 JTAG> >0x17A8 JTAG> >0x1F0 JTAG>  returns TRUE (0009ms, 1176ms total)
T0CD0 001:505 JLINK_ReadReg(R15 (PC))  returns 0x20000000 (0000ms, 1167ms total)
T0CD0 001:505 JLINK_ClrBPEx(BPHandle = 0x0000000B)  returns 0x00 (0000ms, 1167ms total)
T0CD0 001:505 JLINK_ReadReg(R0)  returns 0x00000000 (0000ms, 1167ms total)
T0CD0 001:506 JLINK_WriteReg(R0, 0x08002800)  returns 0x00 (0000ms, 1167ms total)
T0CD0 001:506 JLINK_WriteReg(R1, 0x00000800)  returns 0x00 (0000ms, 1167ms total)
T0CD0 001:506 JLINK_WriteReg(R2, 0x000000FF)  returns 0x00 (0000ms, 1167ms total)
T0CD0 001:506 JLINK_WriteReg(R3, 0x00000000)  returns 0x00 (0000ms, 1167ms total)
T0CD0 001:506 JLINK_WriteReg(R4, 0x00000000)  returns 0x00 (0000ms, 1167ms total)
T0CD0 001:506 JLINK_WriteReg(R5, 0x00000000)  returns 0x00 (0000ms, 1167ms total)
T0CD0 001:506 JLINK_WriteReg(R6, 0x00000000)  returns 0x00 (0000ms, 1167ms total)
T0CD0 001:506 JLINK_WriteReg(R7, 0x00000000)  returns 0x00 (0000ms, 1167ms total)
T0CD0 001:506 JLINK_WriteReg(R8, 0x00000000)  returns 0x00 (0000ms, 1167ms total)
T0CD0 001:506 JLINK_WriteReg(R9, 0x20000160)  returns 0x00 (0000ms, 1167ms total)
T0CD0 001:506 JLINK_WriteReg(R10, 0x00000000)  returns 0x00 (0000ms, 1167ms total)
T0CD0 001:506 JLINK_WriteReg(R11, 0x00000000)  returns 0x00 (0000ms, 1167ms total)
T0CD0 001:506 JLINK_WriteReg(R12, 0x00000000)  returns 0x00 (0000ms, 1167ms total)
T0CD0 001:506 JLINK_WriteReg(R13 (SP), 0x20001000)  returns 0x00 (0000ms, 1167ms total)
T0CD0 001:506 JLINK_WriteReg(R14, 0x20000001)  returns 0x00 (0000ms, 1167ms total)
T0CD0 001:506 JLINK_WriteReg(R15 (PC), 0x20000020)  returns 0x00 (0000ms, 1167ms total)
T0CD0 001:506 JLINK_WriteReg(XPSR, 0x01000000)  returns 0x00 (0000ms, 1167ms total)
T0CD0 001:506 JLINK_WriteReg(MSP, 0x20001000)  returns 0x00 (0000ms, 1167ms total)
T0CD0 001:507 JLINK_WriteReg(PSP, 0x20001000)  returns 0x00 (0000ms, 1167ms total)
T0CD0 001:507 JLINK_WriteReg(CFBP, 0x00000000)  returns 0x00 (0000ms, 1167ms total)
T0CD0 001:507 JLINK_SetBPEx(Addr = 0x20000000, Type = 0xFFFFFFF2)  returns 0x0000000C (0000ms, 1167ms total)
T0CD0 001:507 JLINK_Go() >0x1F0 JTAG> >0x310 JTAG> >0x218 JTAG> >0x218 JTAG> >0x218 JTAG> >0x218 JTAG> >0x240 JTAG> >0x240 JTAG> (0016ms, 1183ms total)
T0CD0 001:523 JLINK_IsHalted() >0x198 JTAG> >0x17A8 JTAG> >0x1F0 JTAG>  returns TRUE (0009ms, 1192ms total)
T0CD0 001:532 JLINK_ReadReg(R15 (PC))  returns 0x20000000 (0000ms, 1183ms total)
T0CD0 001:532 JLINK_ClrBPEx(BPHandle = 0x0000000C)  returns 0x00 (0000ms, 1183ms total)
T0CD0 001:532 JLINK_ReadReg(R0)  returns 0x00000001 (0000ms, 1183ms total)
T0CD0 001:532 JLINK_WriteReg(R0, 0x08002800)  returns 0x00 (0000ms, 1183ms total)
T0CD0 001:532 JLINK_WriteReg(R1, 0x00000800)  returns 0x00 (0000ms, 1183ms total)
T0CD0 001:533 JLINK_WriteReg(R2, 0x000000FF)  returns 0x00 (0000ms, 1183ms total)
T0CD0 001:533 JLINK_WriteReg(R3, 0x00000000)  returns 0x00 (0000ms, 1183ms total)
T0CD0 001:533 JLINK_WriteReg(R4, 0x00000000)  returns 0x00 (0000ms, 1183ms total)
T0CD0 001:533 JLINK_WriteReg(R5, 0x00000000)  returns 0x00 (0000ms, 1183ms total)
T0CD0 001:533 JLINK_WriteReg(R6, 0x00000000)  returns 0x00 (0000ms, 1183ms total)
T0CD0 001:533 JLINK_WriteReg(R7, 0x00000000)  returns 0x00 (0000ms, 1183ms total)
T0CD0 001:533 JLINK_WriteReg(R8, 0x00000000)  returns 0x00 (0000ms, 1183ms total)
T0CD0 001:533 JLINK_WriteReg(R9, 0x20000160)  returns 0x00 (0000ms, 1183ms total)
T0CD0 001:533 JLINK_WriteReg(R10, 0x00000000)  returns 0x00 (0000ms, 1183ms total)
T0CD0 001:533 JLINK_WriteReg(R11, 0x00000000)  returns 0x00 (0000ms, 1183ms total)
T0CD0 001:533 JLINK_WriteReg(R12, 0x00000000)  returns 0x00 (0000ms, 1183ms total)
T0CD0 001:533 JLINK_WriteReg(R13 (SP), 0x20001000)  returns 0x00 (0000ms, 1183ms total)
T0CD0 001:533 JLINK_WriteReg(R14, 0x20000001)  returns 0x00 (0000ms, 1183ms total)
T0CD0 001:533 JLINK_WriteReg(R15 (PC), 0x200000B6)  returns 0x00 (0000ms, 1183ms total)
T0CD0 001:533 JLINK_WriteReg(XPSR, 0x01000000)  returns 0x00 (0000ms, 1183ms total)
T0CD0 001:533 JLINK_WriteReg(MSP, 0x20001000)  returns 0x00 (0000ms, 1183ms total)
T0CD0 001:533 JLINK_WriteReg(PSP, 0x20001000)  returns 0x00 (0000ms, 1183ms total)
T0CD0 001:533 JLINK_WriteReg(CFBP, 0x00000000)  returns 0x00 (0000ms, 1183ms total)
T0CD0 001:533 JLINK_SetBPEx(Addr = 0x20000000, Type = 0xFFFFFFF2)  returns 0x0000000D (0000ms, 1183ms total)
T0CD0 001:533 JLINK_Go() >0x1F0 JTAG> >0x310 JTAG> >0x218 JTAG> >0x218 JTAG> >0x218 JTAG> >0x240 JTAG> >0x240 JTAG> (0013ms, 1196ms total)
T0CD0 001:546 JLINK_IsHalted() >0x198 JTAG>  returns FALSE (0002ms, 1198ms total)
T0CD0 001:551 JLINK_IsHalted() >0x198 JTAG>  returns FALSE (0002ms, 1198ms total)
T0CD0 001:554 JLINK_IsHalted() >0x198 JTAG>  returns FALSE (0002ms, 1198ms total)
T0CD0 001:557 JLINK_IsHalted() >0x198 JTAG>  returns FALSE (0002ms, 1198ms total)
T0CD0 001:560 JLINK_IsHalted() >0x198 JTAG>  returns FALSE (0002ms, 1198ms total)
T0CD0 001:563 JLINK_IsHalted() >0x198 JTAG>  returns FALSE (0002ms, 1198ms total)
T0CD0 001:566 JLINK_IsHalted() >0x198 JTAG>  returns FALSE (0002ms, 1198ms total)
T0CD0 001:569 JLINK_IsHalted() >0x198 JTAG> >0x17A8 JTAG> >0x1F0 JTAG>  returns TRUE (0009ms, 1205ms total)
T0CD0 001:579 JLINK_ReadReg(R15 (PC))  returns 0x20000000 (0000ms, 1196ms total)
T0CD0 001:579 JLINK_ClrBPEx(BPHandle = 0x0000000D)  returns 0x00 (0000ms, 1196ms total)
T0CD0 001:580 JLINK_ReadReg(R0)  returns 0x00000000 (0000ms, 1196ms total)
T0CD0 001:580 JLINK_WriteReg(R0, 0x08003000)  returns 0x00 (0000ms, 1196ms total)
T0CD0 001:580 JLINK_WriteReg(R1, 0x00000800)  returns 0x00 (0000ms, 1196ms total)
T0CD0 001:580 JLINK_WriteReg(R2, 0x000000FF)  returns 0x00 (0000ms, 1196ms total)
T0CD0 001:580 JLINK_WriteReg(R3, 0x00000000)  returns 0x00 (0000ms, 1196ms total)
T0CD0 001:580 JLINK_WriteReg(R4, 0x00000000)  returns 0x00 (0000ms, 1196ms total)
T0CD0 001:580 JLINK_WriteReg(R5, 0x00000000)  returns 0x00 (0000ms, 1196ms total)
T0CD0 001:580 JLINK_WriteReg(R6, 0x00000000)  returns 0x00 (0000ms, 1196ms total)
T0CD0 001:580 JLINK_WriteReg(R7, 0x00000000)  returns 0x00 (0000ms, 1196ms total)
T0CD0 001:580 JLINK_WriteReg(R8, 0x00000000)  returns 0x00 (0000ms, 1196ms total)
T0CD0 001:580 JLINK_WriteReg(R9, 0x20000160)  returns 0x00 (0000ms, 1196ms total)
T0CD0 001:580 JLINK_WriteReg(R10, 0x00000000)  returns 0x00 (0000ms, 1196ms total)
T0CD0 001:580 JLINK_WriteReg(R11, 0x00000000)  returns 0x00 (0000ms, 1196ms total)
T0CD0 001:580 JLINK_WriteReg(R12, 0x00000000)  returns 0x00 (0000ms, 1196ms total)
T0CD0 001:580 JLINK_WriteReg(R13 (SP), 0x20001000)  returns 0x00 (0000ms, 1196ms total)
T0CD0 001:580 JLINK_WriteReg(R14, 0x20000001)  returns 0x00 (0000ms, 1196ms total)
T0CD0 001:580 JLINK_WriteReg(R15 (PC), 0x20000020)  returns 0x00 (0000ms, 1196ms total)
T0CD0 001:580 JLINK_WriteReg(XPSR, 0x01000000)  returns 0x00 (0000ms, 1196ms total)
T0CD0 001:580 JLINK_WriteReg(MSP, 0x20001000)  returns 0x00 (0000ms, 1196ms total)
T0CD0 001:580 JLINK_WriteReg(PSP, 0x20001000)  returns 0x00 (0000ms, 1196ms total)
T0CD0 001:580 JLINK_WriteReg(CFBP, 0x00000000)  returns 0x00 (0000ms, 1196ms total)
T0CD0 001:580 JLINK_SetBPEx(Addr = 0x20000000, Type = 0xFFFFFFF2)  returns 0x0000000E (0000ms, 1196ms total)
T0CD0 001:580 JLINK_Go() >0x1F0 JTAG> >0x310 JTAG> >0x218 JTAG> >0x218 JTAG> >0x218 JTAG> >0x218 JTAG> >0x240 JTAG> >0x240 JTAG> (0017ms, 1213ms total)
T0CD0 001:597 JLINK_IsHalted() >0x198 JTAG> >0x17A8 JTAG> >0x1F0 JTAG>  returns TRUE (0009ms, 1222ms total)
T0CD0 001:606 JLINK_ReadReg(R15 (PC))  returns 0x20000000 (0000ms, 1213ms total)
T0CD0 001:606 JLINK_ClrBPEx(BPHandle = 0x0000000E)  returns 0x00 (0000ms, 1213ms total)
T0CD0 001:606 JLINK_ReadReg(R0)  returns 0x00000001 (0000ms, 1213ms total)
T0CD0 001:606 JLINK_WriteReg(R0, 0x08003000)  returns 0x00 (0000ms, 1213ms total)
T0CD0 001:606 JLINK_WriteReg(R1, 0x00000800)  returns 0x00 (0000ms, 1213ms total)
T0CD0 001:606 JLINK_WriteReg(R2, 0x000000FF)  returns 0x00 (0000ms, 1213ms total)
T0CD0 001:606 JLINK_WriteReg(R3, 0x00000000)  returns 0x00 (0000ms, 1213ms total)
T0CD0 001:606 JLINK_WriteReg(R4, 0x00000000)  returns 0x00 (0000ms, 1213ms total)
T0CD0 001:606 JLINK_WriteReg(R5, 0x00000000)  returns 0x00 (0000ms, 1213ms total)
T0CD0 001:606 JLINK_WriteReg(R6, 0x00000000)  returns 0x00 (0000ms, 1213ms total)
T0CD0 001:606 JLINK_WriteReg(R7, 0x00000000)  returns 0x00 (0000ms, 1213ms total)
T0CD0 001:606 JLINK_WriteReg(R8, 0x00000000)  returns 0x00 (0000ms, 1213ms total)
T0CD0 001:606 JLINK_WriteReg(R9, 0x20000160)  returns 0x00 (0000ms, 1213ms total)
T0CD0 001:606 JLINK_WriteReg(R10, 0x00000000)  returns 0x00 (0000ms, 1213ms total)
T0CD0 001:606 JLINK_WriteReg(R11, 0x00000000)  returns 0x00 (0000ms, 1213ms total)
T0CD0 001:606 JLINK_WriteReg(R12, 0x00000000)  returns 0x00 (0000ms, 1213ms total)
T0CD0 001:606 JLINK_WriteReg(R13 (SP), 0x20001000)  returns 0x00 (0000ms, 1213ms total)
T0CD0 001:606 JLINK_WriteReg(R14, 0x20000001)  returns 0x00 (0000ms, 1213ms total)
T0CD0 001:606 JLINK_WriteReg(R15 (PC), 0x200000B6)  returns 0x00 (0000ms, 1213ms total)
T0CD0 001:606 JLINK_WriteReg(XPSR, 0x01000000)  returns 0x00 (0000ms, 1213ms total)
T0CD0 001:606 JLINK_WriteReg(MSP, 0x20001000)  returns 0x00 (0000ms, 1213ms total)
T0CD0 001:606 JLINK_WriteReg(PSP, 0x20001000)  returns 0x00 (0000ms, 1213ms total)
T0CD0 001:606 JLINK_WriteReg(CFBP, 0x00000000)  returns 0x00 (0000ms, 1213ms total)
T0CD0 001:606 JLINK_SetBPEx(Addr = 0x20000000, Type = 0xFFFFFFF2)  returns 0x0000000F (0000ms, 1213ms total)
T0CD0 001:606 JLINK_Go() >0x1F0 JTAG> >0x310 JTAG> >0x218 JTAG> >0x218 JTAG> >0x240 JTAG> >0x240 JTAG> (0012ms, 1225ms total)
T0CD0 001:618 JLINK_IsHalted() >0x198 JTAG>  returns FALSE (0002ms, 1227ms total)
T0CD0 001:626 JLINK_IsHalted() >0x198 JTAG>  returns FALSE (0002ms, 1227ms total)
T0CD0 001:629 JLINK_IsHalted() >0x198 JTAG>  returns FALSE (0002ms, 1227ms total)
T0CD0 001:632 JLINK_IsHalted() >0x198 JTAG>  returns FALSE (0002ms, 1227ms total)
T0CD0 001:635 JLINK_IsHalted() >0x198 JTAG>  returns FALSE (0002ms, 1227ms total)
T0CD0 001:638 JLINK_IsHalted() >0x198 JTAG>  returns FALSE (0002ms, 1227ms total)
T0CD0 001:641 JLINK_IsHalted() >0x198 JTAG> >0x17A8 JTAG> >0x1F0 JTAG>  returns TRUE (0009ms, 1234ms total)
T0CD0 001:650 JLINK_ReadReg(R15 (PC))  returns 0x20000000 (0000ms, 1225ms total)
T0CD0 001:650 JLINK_ClrBPEx(BPHandle = 0x0000000F)  returns 0x00 (0000ms, 1225ms total)
T0CD0 001:650 JLINK_ReadReg(R0)  returns 0x00000000 (0000ms, 1225ms total)
T0CD0 001:651 JLINK_WriteReg(R0, 0x08003800)  returns 0x00 (0000ms, 1225ms total)
T0CD0 001:651 JLINK_WriteReg(R1, 0x00000800)  returns 0x00 (0000ms, 1225ms total)
T0CD0 001:651 JLINK_WriteReg(R2, 0x000000FF)  returns 0x00 (0000ms, 1225ms total)
T0CD0 001:651 JLINK_WriteReg(R3, 0x00000000)  returns 0x00 (0000ms, 1225ms total)
T0CD0 001:651 JLINK_WriteReg(R4, 0x00000000)  returns 0x00 (0000ms, 1225ms total)
T0CD0 001:651 JLINK_WriteReg(R5, 0x00000000)  returns 0x00 (0000ms, 1225ms total)
T0CD0 001:651 JLINK_WriteReg(R6, 0x00000000)  returns 0x00 (0000ms, 1225ms total)
T0CD0 001:651 JLINK_WriteReg(R7, 0x00000000)  returns 0x00 (0000ms, 1225ms total)
T0CD0 001:651 JLINK_WriteReg(R8, 0x00000000)  returns 0x00 (0000ms, 1225ms total)
T0CD0 001:651 JLINK_WriteReg(R9, 0x20000160)  returns 0x00 (0000ms, 1225ms total)
T0CD0 001:651 JLINK_WriteReg(R10, 0x00000000)  returns 0x00 (0000ms, 1225ms total)
T0CD0 001:651 JLINK_WriteReg(R11, 0x00000000)  returns 0x00 (0000ms, 1225ms total)
T0CD0 001:651 JLINK_WriteReg(R12, 0x00000000)  returns 0x00 (0000ms, 1225ms total)
T0CD0 001:651 JLINK_WriteReg(R13 (SP), 0x20001000)  returns 0x00 (0000ms, 1225ms total)
T0CD0 001:651 JLINK_WriteReg(R14, 0x20000001)  returns 0x00 (0000ms, 1225ms total)
T0CD0 001:651 JLINK_WriteReg(R15 (PC), 0x20000020)  returns 0x00 (0000ms, 1225ms total)
T0CD0 001:651 JLINK_WriteReg(XPSR, 0x01000000)  returns 0x00 (0000ms, 1225ms total)
T0CD0 001:651 JLINK_WriteReg(MSP, 0x20001000)  returns 0x00 (0000ms, 1225ms total)
T0CD0 001:651 JLINK_WriteReg(PSP, 0x20001000)  returns 0x00 (0000ms, 1225ms total)
T0CD0 001:651 JLINK_WriteReg(CFBP, 0x00000000)  returns 0x00 (0000ms, 1225ms total)
T0CD0 001:651 JLINK_SetBPEx(Addr = 0x20000000, Type = 0xFFFFFFF2)  returns 0x00000010 (0000ms, 1225ms total)
T0CD0 001:651 JLINK_Go() >0x1F0 JTAG> >0x310 JTAG> >0x218 JTAG> >0x218 JTAG> >0x218 JTAG> >0x218 JTAG> >0x240 JTAG> >0x240 JTAG> (0017ms, 1242ms total)
T0CD0 001:668 JLINK_IsHalted() >0x198 JTAG> >0x17A8 JTAG> >0x1F0 JTAG>  returns TRUE (0009ms, 1251ms total)
T0CD0 001:677 JLINK_ReadReg(R15 (PC))  returns 0x20000000 (0000ms, 1242ms total)
T0CD0 001:677 JLINK_ClrBPEx(BPHandle = 0x00000010)  returns 0x00 (0000ms, 1242ms total)
T0CD0 001:677 JLINK_ReadReg(R0)  returns 0x00000001 (0000ms, 1242ms total)
T0CD0 001:677 JLINK_WriteReg(R0, 0x08003800)  returns 0x00 (0000ms, 1242ms total)
T0CD0 001:677 JLINK_WriteReg(R1, 0x00000800)  returns 0x00 (0000ms, 1242ms total)
T0CD0 001:677 JLINK_WriteReg(R2, 0x000000FF)  returns 0x00 (0000ms, 1242ms total)
T0CD0 001:677 JLINK_WriteReg(R3, 0x00000000)  returns 0x00 (0000ms, 1242ms total)
T0CD0 001:677 JLINK_WriteReg(R4, 0x00000000)  returns 0x00 (0000ms, 1242ms total)
T0CD0 001:677 JLINK_WriteReg(R5, 0x00000000)  returns 0x00 (0000ms, 1242ms total)
T0CD0 001:677 JLINK_WriteReg(R6, 0x00000000)  returns 0x00 (0000ms, 1242ms total)
T0CD0 001:677 JLINK_WriteReg(R7, 0x00000000)  returns 0x00 (0000ms, 1242ms total)
T0CD0 001:677 JLINK_WriteReg(R8, 0x00000000)  returns 0x00 (0000ms, 1242ms total)
T0CD0 001:677 JLINK_WriteReg(R9, 0x20000160)  returns 0x00 (0000ms, 1242ms total)
T0CD0 001:677 JLINK_WriteReg(R10, 0x00000000)  returns 0x00 (0000ms, 1242ms total)
T0CD0 001:677 JLINK_WriteReg(R11, 0x00000000)  returns 0x00 (0000ms, 1242ms total)
T0CD0 001:677 JLINK_WriteReg(R12, 0x00000000)  returns 0x00 (0000ms, 1242ms total)
T0CD0 001:677 JLINK_WriteReg(R13 (SP), 0x20001000)  returns 0x00 (0000ms, 1242ms total)
T0CD0 001:677 JLINK_WriteReg(R14, 0x20000001)  returns 0x00 (0000ms, 1242ms total)
T0CD0 001:677 JLINK_WriteReg(R15 (PC), 0x200000B6)  returns 0x00 (0000ms, 1242ms total)
T0CD0 001:677 JLINK_WriteReg(XPSR, 0x01000000)  returns 0x00 (0000ms, 1242ms total)
